
**** 07/26/17 16:21:19 ******* PSpice Lite (March 2016) ******* ID# 10813 ****

 ** Profile: "SCHEMATIC1-gg7"  [ c:\users\intern\documents\github\uv-sticker\p-spice\ex1-PSpiceFiles\SCHEMATIC1\gg7.sim ] 


 ****     CIRCUIT DESCRIPTION


******************************************************************************




** Creating circuit file "gg7.cir" 
** WARNING: THIS AUTOMATICALLY GENERATED FILE MAY BE OVERWRITTEN BY SUBSEQUENT SIMULATIONS

*Libraries: 
* Profile Libraries :
* Local Libraries :
* From [PSPICE NETLIST] section of C:\Users\Intern\AppData\Roaming\SPB_Data\cdssetup\OrCAD_PSpice\17.2.0\PSpice.ini file:
.lib "nomd.lib" 

*Analysis directives: 
.TRAN  0 1000ns 0 
.OPTIONS ADVCONV
.PROBE64 V(alias(*)) I(alias(*)) W(alias(*)) D(alias(*)) NOISE(alias(*)) 
.INC "..\SCHEMATIC1.net" 



**** INCLUDING SCHEMATIC1.net ****
* source EX1
V_V1         N14434 0 3.3Vdc
R_R1         V1 N14434  280 TC=0,0 
R_R2         0 V1  280 TC=0,0 
R_R3         0 V2  280 TC=0,0 
R_R4         V2 N14434  281 TC=0,0 
R_R7         N15777 0  1.2MEG TC=0,0 
R_R5         V1 N15777  1k TC=0,0 
E_U1         V3 0 VALUE {LIMIT(V(N15777,N15859)*1E6,0V,+3.3V)}
R_R6         V2 N15859  1k TC=0,0 
R_R8         N15859 V3  1.2MEG TC=0,0 

**** RESUMING gg7.cir ****
.END

**** 07/26/17 16:21:19 ******* PSpice Lite (March 2016) ******* ID# 10813 ****

 ** Profile: "SCHEMATIC1-gg7"  [ c:\users\intern\documents\github\uv-sticker\p-spice\ex1-PSpiceFiles\SCHEMATIC1\gg7.sim ] 


 ****     INITIAL TRANSIENT SOLUTION       TEMPERATURE =   27.000 DEG C


******************************************************************************



 NODE   VOLTAGE     NODE   VOLTAGE     NODE   VOLTAGE     NODE   VOLTAGE


(   V1)    1.6498  (   V2)    1.6472  (   V3)    3.0924  (N14434)    3.3000     

(N15777)    1.6484 (N15859)    1.6484 




    VOLTAGE SOURCE CURRENTS
    NAME         CURRENT

    V_V1        -1.178E-02

    TOTAL POWER DISSIPATION   3.89E-02  WATTS



          JOB CONCLUDED

**** 07/26/17 16:21:19 ******* PSpice Lite (March 2016) ******* ID# 10813 ****

 ** Profile: "SCHEMATIC1-gg7"  [ c:\users\intern\documents\github\uv-sticker\p-spice\ex1-PSpiceFiles\SCHEMATIC1\gg7.sim ] 


 ****     JOB STATISTICS SUMMARY


******************************************************************************



  Total job time (using Solver 1)   =         .02
