
**** 07/17/17 17:56:58 ******* PSpice Lite (March 2016) ******* ID# 10813 ****

 ** Profile: "SCHEMATIC1-test5"  [ C:\Users\Intern\Documents\GitHub\UV-Sticker\P-SPICE\ex1-PSpiceFiles\SCHEMATIC1\test5.sim ] 


 ****     CIRCUIT DESCRIPTION


******************************************************************************




** Creating circuit file "test5.cir" 
** WARNING: THIS AUTOMATICALLY GENERATED FILE MAY BE OVERWRITTEN BY SUBSEQUENT SIMULATIONS

*Libraries: 
* Profile Libraries :
* Local Libraries :
* From [PSPICE NETLIST] section of C:\Users\Intern\AppData\Roaming\SPB_Data\cdssetup\OrCAD_PSpice\17.2.0\PSpice.ini file:
.lib "nomd.lib" 

*Analysis directives: 
.TRAN  0 1000ns 0 
.OPTIONS ADVCONV
.PROBE64 V(alias(*)) I(alias(*)) W(alias(*)) D(alias(*)) NOISE(alias(*)) 
.INC "..\SCHEMATIC1.net" 



**** INCLUDING SCHEMATIC1.net ****
* source EX1
V_V1         N14434 0 3.3Vdc
R_R1         V1 N14434  14k TC=0,0 
R_R2         0 V1  14k TC=0,0 
R_R3         0 N14476  14k TC=0,0 
R_R4         N14476 N14434  14.35k TC=0,0 
R_R7         N15777 0  1000k TC=0,0 
R_R5         V1 N15777  1k TC=0,0 
E_U1         N15827 0 VALUE {LIMIT(V(N15777,N15859)*1E6,0V,+3.3V)}
R_R6         N14476 N15859  1k TC=0,0 
R_R8         N15859 N15827  1000k TC=0,0 

**** RESUMING test5.cir ****
.END

**** 07/17/17 17:56:58 ******* PSpice Lite (March 2016) ******* ID# 10813 ****

 ** Profile: "SCHEMATIC1-test5"  [ C:\Users\Intern\Documents\GitHub\UV-Sticker\P-SPICE\ex1-PSpiceFiles\SCHEMATIC1\test5.sim ] 


 ****     INITIAL TRANSIENT SOLUTION       TEMPERATURE =   27.000 DEG C


******************************************************************************



 NODE   VOLTAGE     NODE   VOLTAGE     NODE   VOLTAGE     NODE   VOLTAGE


(   V1)    1.6385  (N14434)    3.3000 (N14476)    1.6360 (N15777)    1.6369     

(N15827)    2.5363 (N15859)    1.6369 




    VOLTAGE SOURCE CURRENTS
    NAME         CURRENT

    V_V1        -2.346E-04

    TOTAL POWER DISSIPATION   7.74E-04  WATTS



          JOB CONCLUDED

**** 07/17/17 17:56:58 ******* PSpice Lite (March 2016) ******* ID# 10813 ****

 ** Profile: "SCHEMATIC1-test5"  [ C:\Users\Intern\Documents\GitHub\UV-Sticker\P-SPICE\ex1-PSpiceFiles\SCHEMATIC1\test5.sim ] 


 ****     JOB STATISTICS SUMMARY


******************************************************************************



  Total job time (using Solver 1)   =        0.00
