
**** 07/17/17 19:28:54 ******* PSpice Lite (March 2016) ******* ID# 10813 ****

 ** Profile: "SCHEMATIC1-test11"  [ C:\Users\Intern\Documents\GitHub\UV-Sticker\P-SPICE\ex1-PSpiceFiles\SCHEMATIC1\test11.sim ] 


 ****     CIRCUIT DESCRIPTION


******************************************************************************




** Creating circuit file "test11.cir" 
** WARNING: THIS AUTOMATICALLY GENERATED FILE MAY BE OVERWRITTEN BY SUBSEQUENT SIMULATIONS

*Libraries: 
* Profile Libraries :
* Local Libraries :
* From [PSPICE NETLIST] section of C:\Users\Intern\AppData\Roaming\SPB_Data\cdssetup\OrCAD_PSpice\17.2.0\PSpice.ini file:
.lib "nomd.lib" 

*Analysis directives: 
.TRAN  0 1000ns 0 
.OPTIONS ADVCONV
.PROBE64 V(alias(*)) I(alias(*)) W(alias(*)) D(alias(*)) NOISE(alias(*)) 
.INC "..\SCHEMATIC1.net" 



**** INCLUDING SCHEMATIC1.net ****
* source EX1
V_V1         N14449 0 3.3Vdc
R_R1         V1 N14434  14k TC=0,0 
R_R2         0 V1  14k TC=0,0 
R_R3         0 V2  14k TC=0,0 
R_R4         V2 N14434  14.3k TC=0,0 
R_R7         N15777 0  3.3MEG TC=0,0 
R_R5         V1 N15777  14k TC=0,0 
E_U1         V3 0 VALUE {LIMIT(V(N15777,N15859)*1E6,0V,+3.3V)}
R_R6         V2 N15859  14k TC=0,0 
R_R8         N15859 V3  3.3MEG TC=0,0 
Q_Q1         N14434 N18901 N14449 QbreakN 
R_R9         N14449 N18901  100 TC=0,0 

**** RESUMING test11.cir ****
.END

**** 07/17/17 19:28:54 ******* PSpice Lite (March 2016) ******* ID# 10813 ****

 ** Profile: "SCHEMATIC1-test11"  [ C:\Users\Intern\Documents\GitHub\UV-Sticker\P-SPICE\ex1-PSpiceFiles\SCHEMATIC1\test11.sim ] 


 ****     BJT MODEL PARAMETERS


******************************************************************************




               QbreakN         
               NPN             
       LEVEL    1            
          IS  100.000000E-18 
          BF  100            
          NF    1            
          BR    1            
          NR    1            
         ISS    0            
          RE    0            
          RC    0            
         CJE    0            
         VJE     .75         
         CJC    0            
         VJC     .75         
         MJC     .33         
        XCJC    1            
         CJS    0            
         VJS     .75         
          KF    0            
          AF    1            
          CN    2.42         
           D     .87         


**** 07/17/17 19:28:54 ******* PSpice Lite (March 2016) ******* ID# 10813 ****

 ** Profile: "SCHEMATIC1-test11"  [ C:\Users\Intern\Documents\GitHub\UV-Sticker\P-SPICE\ex1-PSpiceFiles\SCHEMATIC1\test11.sim ] 


 ****     INITIAL TRANSIENT SOLUTION       TEMPERATURE =   27.000 DEG C


******************************************************************************



 NODE   VOLTAGE     NODE   VOLTAGE     NODE   VOLTAGE     NODE   VOLTAGE


(   V1)    1.2865  (   V2)    1.2774  (   V3)    2.1442  (N14434)    2.5784     

(N14449)    3.3000 (N15777)    1.2811 (N15859)    1.2811 (N18901)    3.2908 




    VOLTAGE SOURCE CURRENTS
    NAME         CURRENT

    V_V1        -1.833E-04

    TOTAL POWER DISSIPATION   6.05E-04  WATTS



          JOB CONCLUDED

**** 07/17/17 19:28:54 ******* PSpice Lite (March 2016) ******* ID# 10813 ****

 ** Profile: "SCHEMATIC1-test11"  [ C:\Users\Intern\Documents\GitHub\UV-Sticker\P-SPICE\ex1-PSpiceFiles\SCHEMATIC1\test11.sim ] 


 ****     JOB STATISTICS SUMMARY


******************************************************************************



  Total job time (using Solver 1)   =         .03
