
**** 10/20/17 12:10:24 ******* PSpice Lite (March 2016) ******* ID# 10813 ****

 ** Profile: "SCHEMATIC1-test1"  [ c:\users\intern\documents\github\uv-sticker\p-spice\ex1-pspicefiles\schematic1\test1.sim ] 


 ****     CIRCUIT DESCRIPTION


******************************************************************************




** Creating circuit file "test1.cir" 
** WARNING: THIS AUTOMATICALLY GENERATED FILE MAY BE OVERWRITTEN BY SUBSEQUENT SIMULATIONS

*Libraries: 
* Profile Libraries :
* Local Libraries :
* From [PSPICE NETLIST] section of C:\Users\Intern\AppData\Roaming\SPB_Data\cdssetup\OrCAD_PSpice\17.2.0\PSpice.ini file:
.lib "nomd.lib" 

*Analysis directives: 
.TRAN  0 1000ns 0 
.OPTIONS ADVCONV
.PROBE64 V(alias(*)) I(alias(*)) W(alias(*)) D(alias(*)) NOISE(alias(*)) 
.INC "..\SCHEMATIC1.net" 



**** INCLUDING SCHEMATIC1.net ****
* source EX1
V_V1         N14443 0 3.3Vdc
R_R1         V1 N21730  787 TC=0,0 
R_R2         0 V1  1k TC=0,0 
R_R3         0 V2  1k TC=0,0 
R_R4         V2 N14443  800 TC=0,0 
R_R7         N15777 0  300K TC=0,0 
R_R5         V1 N15777  1k TC=0,0 
E_U1         V3 0 VALUE {LIMIT(V(N15777,N15859)*1E6,0V,+3.3V)}
R_R6         V2 N15859  1k TC=0,0 
R_R8         N15859 V3  300K TC=0,0 
R_R9         N21730 N14443  10.3 TC=0,0 

**** RESUMING test1.cir ****
.END

**** 10/20/17 12:10:24 ******* PSpice Lite (March 2016) ******* ID# 10813 ****

 ** Profile: "SCHEMATIC1-test1"  [ c:\users\intern\documents\github\uv-sticker\p-spice\ex1-pspicefiles\schematic1\test1.sim ] 


 ****     INITIAL TRANSIENT SOLUTION       TEMPERATURE =   27.000 DEG C


******************************************************************************



 NODE   VOLTAGE     NODE   VOLTAGE     NODE   VOLTAGE     NODE   VOLTAGE


(   V1)    1.8334  (   V2)    1.8315  (   V3)     .5729  (N14443)    3.3000     

(N15777)    1.8273 (N15859)    1.8273 (N21730)    3.2811 




    VOLTAGE SOURCE CURRENTS
    NAME         CURRENT

    V_V1        -3.675E-03

    TOTAL POWER DISSIPATION   1.21E-02  WATTS



          JOB CONCLUDED

**** 10/20/17 12:10:24 ******* PSpice Lite (March 2016) ******* ID# 10813 ****

 ** Profile: "SCHEMATIC1-test1"  [ c:\users\intern\documents\github\uv-sticker\p-spice\ex1-pspicefiles\schematic1\test1.sim ] 


 ****     JOB STATISTICS SUMMARY


******************************************************************************



  Total job time (using Solver 1)   =        0.00
